date Sun Mar 29 12:25:52.888 pm 2026
base hex  timestamps absolute
internal events logged
// version 8.5.0
Begin Triggerblock Sun Mar 29 12:25:52.888 pm 2026
   0.000000 Start of measurement
   0.000000 1  200             Rx   d 12 23 5A DA BE C8 56 5A 3F 16 34 9A BE   Length = 0 BitCount = 0 ID = 512
   0.020767 1  200             Rx   d 12 5A EB 5C BE B3 E5 5C 3F 56 02 EA BE   Length = 0 BitCount = 0 ID = 512
   0.038098 1  200             Rx   d 12 18 96 5B BF 33 AA 2F 3E 4E 1B F8 3E   Length = 0 BitCount = 0 ID = 512
   0.056776 1  200             Rx   d 12 5A EB 5C BE B3 E5 5C 3F 56 02 EA BE   Length = 0 BitCount = 0 ID = 512
   0.075729 1  200             Rx   d 12 5A EB 5C BE B3 E5 5C 3F 56 02 EA BE   Length = 0 BitCount = 0 ID = 512
   0.095264 1  200             Rx   d 12 76 EB 5C BE B3 E5 5C 3F 4D 02 EA BE   Length = 0 BitCount = 0 ID = 512
   0.114838 1  200             Rx   d 12 5A EB 5C BE B3 E5 5C 3F 56 02 EA BE   Length = 0 BitCount = 0 ID = 512
   0.152343 1  200             Rx   d 12 5A EB 5C BE B3 E5 5C 3F 56 02 EA BE   Length = 0 BitCount = 0 ID = 512
   0.171517 1  200             Rx   d 12 5A EB 5C BE B3 E5 5C 3F 56 02 EA BE   Length = 0 BitCount = 0 ID = 512
   0.189827 1  200             Rx   d 12 FD 79 5D BF 0A 1C 7D 3E D1 6D DF 3E   Length = 0 BitCount = 0 ID = 512
   0.228484 1  200             Rx   d 12 9A AF 2F BE BE 94 5B 3F 1F 1F F8 BE   Length = 0 BitCount = 0 ID = 512
   0.246825 1  200             Rx   d 12 55 AF 2F BE BB 94 5B 3F 33 1F F8 BE   Length = 0 BitCount = 0 ID = 512
   0.265794 1  200             Rx   d 12 76 EB 5C BE B3 E5 5C 3F 4D 02 EA BE   Length = 0 BitCount = 0 ID = 512
   0.285703 1  200             Rx   d 12 76 EB 5C BE B3 E5 5C 3F 4D 02 EA BE   Length = 0 BitCount = 0 ID = 512
   0.304555 1  200             Rx   d 12 9A AF 2F BE BE 94 5B 3F 1F 1F F8 BE   Length = 0 BitCount = 0 ID = 512
   0.323716 1  200             Rx   d 12 D8 8D 89 B7 12 1C 51 3F E3 AD 13 BF   Length = 0 BitCount = 0 ID = 512
   0.344347 1  200             Rx   d 12 5A EB 5C BE B3 E5 5C 3F 56 02 EA BE   Length = 0 BitCount = 0 ID = 512
   0.380931 1  200             Rx   d 12 9A AF 2F BE BE 94 5B 3F 1F 1F F8 BE   Length = 0 BitCount = 0 ID = 512
   0.399574 1  200             Rx   d 12 45 A6 89 B7 11 1C 51 3F E2 AD 13 BF   Length = 0 BitCount = 0 ID = 512
   0.417952 1  200             Rx   d 12 0A EB 5C BE B1 E5 5C 3F 6E 02 EA BE   Length = 0 BitCount = 0 ID = 512
   0.436826 1  200             Rx   d 12 75 E7 89 B7 12 1C 51 3F E2 AD 13 BF   Length = 0 BitCount = 0 ID = 512
   0.457541 1  200             Rx   d 12 97 AD 5D BF 4A 56 9E 3E 85 44 C9 3E   Length = 0 BitCount = 0 ID = 512
   0.475874 1  200             Rx   d 12 9A AF 2F BE BE 94 5B 3F 1F 1F F8 BE   Length = 0 BitCount = 0 ID = 512
   0.495479 1  200             Rx   d 12 D8 8D 89 B7 12 1C 51 3F E3 AD 13 BF   Length = 0 BitCount = 0 ID = 512
   0.514414 1  200             Rx   d 12 FD 79 5D BF 0A 1C 7D 3E D1 6D DF 3E   Length = 0 BitCount = 0 ID = 512
   0.532413 1  200             Rx   d 12 9A AF 2F BE BE 94 5B 3F 1F 1F F8 BE   Length = 0 BitCount = 0 ID = 512
   0.551726 1  200             Rx   d 12 98 AD 5D BF 54 56 9E 3E 7D 44 C9 3E   Length = 0 BitCount = 0 ID = 512
   0.570500 1  200             Rx   d 12 0A EB 5C BE B1 E5 5C 3F 6E 02 EA BE   Length = 0 BitCount = 0 ID = 512
   0.588948 1  200             Rx   d 12 AB AF 2F BE BE 94 5B 3F 19 1F F8 BE   Length = 0 BitCount = 0 ID = 512
   0.608398 1  200             Rx   d 12 F2 6A 5D BF 06 51 AA 3E 88 70 C0 3E   Length = 0 BitCount = 0 ID = 512
   0.627815 1  200             Rx   d 12 97 AD 5D BF 59 56 9E 3E 77 44 C9 3E   Length = 0 BitCount = 0 ID = 512
   0.646684 1  200             Rx   d 12 5A EB 5C BE B3 E5 5C 3F 56 02 EA BE   Length = 0 BitCount = 0 ID = 512
   0.665425 1  200             Rx   d 12 45 A6 89 B7 11 1C 51 3F E2 AD 13 BF   Length = 0 BitCount = 0 ID = 512
   0.702880 1  200             Rx   d 12 5A EB 5C BE B3 E5 5C 3F 56 02 EA BE   Length = 0 BitCount = 0 ID = 512
   0.722475 1  200             Rx   d 12 5A EB 5C BE B3 E5 5C 3F 56 02 EA BE   Length = 0 BitCount = 0 ID = 512
   0.740473 1  200             Rx   d 12 75 E7 89 B7 12 1C 51 3F E2 AD 13 BF   Length = 0 BitCount = 0 ID = 512
   0.760693 1  200             Rx   d 12 75 E7 89 B7 12 1C 51 3F E2 AD 13 BF   Length = 0 BitCount = 0 ID = 512
   0.779396 1  200             Rx   d 12 5A EB 5C BE B3 E5 5C 3F 56 02 EA BE   Length = 0 BitCount = 0 ID = 512
   0.813996 1  200             Rx   d 12 5A EB 5C BE B3 E5 5C 3F 56 02 EA BE   Length = 0 BitCount = 0 ID = 512
   0.836731 1  200             Rx   d 12 5A EB 5C BE B3 E5 5C 3F 56 02 EA BE   Length = 0 BitCount = 0 ID = 512
   0.874630 1  200             Rx   d 12 D8 8D 89 B7 12 1C 51 3F E3 AD 13 BF   Length = 0 BitCount = 0 ID = 512
   0.893097 1  200             Rx   d 12 0A EB 5C BE B1 E5 5C 3F 6E 02 EA BE   Length = 0 BitCount = 0 ID = 512
   0.912727 1  200             Rx   d 12 9F B6 89 B7 13 1C 51 3F E2 AD 13 BF   Length = 0 BitCount = 0 ID = 512
   0.950459 1  200             Rx   d 12 5A EB 5C BE B3 E5 5C 3F 56 02 EA BE   Length = 0 BitCount = 0 ID = 512
   0.969547 1  200             Rx   d 12 5A EB 5C BE B3 E5 5C 3F 56 02 EA BE   Length = 0 BitCount = 0 ID = 512
   0.988778 1  200             Rx   d 12 A3 36 5C BF 58 BD C3 3E A0 C8 AC 3E   Length = 0 BitCount = 0 ID = 512
   1.006973 1  200             Rx   d 12 5A EB 5C BE B3 E5 5C 3F 56 02 EA BE   Length = 0 BitCount = 0 ID = 512
   1.083579 1  200             Rx   d 12 9F B6 89 B7 13 1C 51 3F E2 AD 13 BF   Length = 0 BitCount = 0 ID = 512
   1.102615 1  200             Rx   d 12 D8 8D 89 B7 12 1C 51 3F E3 AD 13 BF   Length = 0 BitCount = 0 ID = 512
   1.121654 1  200             Rx   d 12 5A EB 5C BE B3 E5 5C 3F 56 02 EA BE   Length = 0 BitCount = 0 ID = 512
   1.140211 1  200             Rx   d 12 D8 8D 89 B7 12 1C 51 3F E3 AD 13 BF   Length = 0 BitCount = 0 ID = 512
   1.159939 1  200             Rx   d 12 5A EB 5C BE B3 E5 5C 3F 56 02 EA BE   Length = 0 BitCount = 0 ID = 512
   1.197182 1  200             Rx   d 12 CF 4D 5D BF 96 6A 71 3E 78 50 E3 3E   Length = 0 BitCount = 0 ID = 512
   1.216149 1  200             Rx   d 12 76 EB 5C BE B3 E5 5C 3F 4D 02 EA BE   Length = 0 BitCount = 0 ID = 512
   1.235947 1  200             Rx   d 12 76 EB 5C BE B3 E5 5C 3F 4D 02 EA BE   Length = 0 BitCount = 0 ID = 512
   1.254525 1  200             Rx   d 12 A3 36 5C BF 62 BD C3 3E 98 C8 AC 3E   Length = 0 BitCount = 0 ID = 512
   1.292734 1  200             Rx   d 12 5A EB 5C BE B3 E5 5C 3F 56 02 EA BE   Length = 0 BitCount = 0 ID = 512
   1.311933 1  200             Rx   d 12 BC CF 57 BF 77 C8 EF 3E 0C 76 87 3E   Length = 0 BitCount = 0 ID = 512
   1.345790 1  200             Rx   d 12 5A EB 5C BE B3 E5 5C 3F 56 02 EA BE   Length = 0 BitCount = 0 ID = 512
   1.349791 1  200             Rx   d 12 D3 30 5D BF 9A F2 B0 3E 8B 6F BB 3E   Length = 0 BitCount = 0 ID = 512
   1.368148 1  200             Rx   d 12 49 9E 5D BF A2 F7 84 3E B6 19 DB 3E   Length = 0 BitCount = 0 ID = 512
   1.387786 1  200             Rx   d 12 B5 D7 93 BE 04 BF 5D 3F 12 CF D0 BE   Length = 0 BitCount = 0 ID = 512
   1.406783 1  200             Rx   d 12 A3 36 5C BF 62 BD C3 3E 98 C8 AC 3E   Length = 0 BitCount = 0 ID = 512
   1.441644 1  200             Rx   d 12 B5 D7 93 BE 04 BF 5D 3F 12 CF D0 BE   Length = 0 BitCount = 0 ID = 512
   1.444682 1  200             Rx   d 12 5A EB 5C BE B3 E5 5C 3F 56 02 EA BE   Length = 0 BitCount = 0 ID = 512
   1.463921 1  200             Rx   d 12 D3 30 5D BF 9A F2 B0 3E 8B 6F BB 3E   Length = 0 BitCount = 0 ID = 512
   1.482903 1  200             Rx   d 12 75 58 5A BF C9 56 DA 3E 57 2F 9A 3E   Length = 0 BitCount = 0 ID = 512
   1.501660 1  200             Rx   d 12 5A EB 5C BE B3 E5 5C 3F 56 02 EA BE   Length = 0 BitCount = 0 ID = 512
   1.534897 1  200             Rx   d 12 A3 36 5C BF 58 BD C3 3E A0 C8 AC 3E   Length = 0 BitCount = 0 ID = 512
   1.539896 1  200             Rx   d 12 88 C0 5D BF 9E D4 93 3E D4 CA D0 3E   Length = 0 BitCount = 0 ID = 512
   1.558880 1  200             Rx   d 12 76 EB 5C BE B3 E5 5C 3F 4D 02 EA BE   Length = 0 BitCount = 0 ID = 512
   1.577532 1  200             Rx   d 12 5A EB 5C BE B3 E5 5C 3F 56 02 EA BE   Length = 0 BitCount = 0 ID = 512
   1.596034 1  200             Rx   d 12 75 58 5A BF C9 56 DA 3E 57 2F 9A 3E   Length = 0 BitCount = 0 ID = 512
   1.615750 1  200             Rx   d 12 B5 D7 93 BE 04 BF 5D 3F 12 CF D0 BE   Length = 0 BitCount = 0 ID = 512
   1.634539 1  200             Rx   d 12 75 58 5A BF C9 56 DA 3E 57 2F 9A 3E   Length = 0 BitCount = 0 ID = 512
   1.653714 1  200             Rx   d 12 88 C0 5D BF AE D4 93 3E C7 CA D0 3E   Length = 0 BitCount = 0 ID = 512
   1.672818 1  200             Rx   d 12 B5 D7 93 BE 04 BF 5D 3F 12 CF D0 BE   Length = 0 BitCount = 0 ID = 512
   1.706036 1  200             Rx   d 12 80 F9 56 BF 69 AD F5 3E CB 1D 82 3E   Length = 0 BitCount = 0 ID = 512
   1.711021 1  200             Rx   d 12 5A EB 5C BE B3 E5 5C 3F 56 02 EA BE   Length = 0 BitCount = 0 ID = 512
   1.729217 1  200             Rx   d 12 9A AF 2F BE BE 94 5B 3F 1F 1F F8 BE   Length = 0 BitCount = 0 ID = 512
   1.748071 1  200             Rx   d 12 B5 87 5D BF 9D 24 A6 3E B5 8B C3 3E   Length = 0 BitCount = 0 ID = 512
   1.767640 1  200             Rx   d 12 B5 D7 93 BE 04 BF 5D 3F 12 CF D0 BE   Length = 0 BitCount = 0 ID = 512
   1.786761 1  200             Rx   d 12 5A EB 5C BE B3 E5 5C 3F 56 02 EA BE   Length = 0 BitCount = 0 ID = 512
   1.805781 1  200             Rx   d 12 B5 87 5D BF 9D 24 A6 3E B5 8B C3 3E   Length = 0 BitCount = 0 ID = 512
   1.825023 1  200             Rx   d 12 B5 D7 93 BE 04 BF 5D 3F 12 CF D0 BE   Length = 0 BitCount = 0 ID = 512
   1.862693 1  200             Rx   d 12 80 F9 56 BF 69 AD F5 3E CB 1D 82 3E   Length = 0 BitCount = 0 ID = 512
   1.881799 1  200             Rx   d 12 B5 D7 93 BE 04 BF 5D 3F 12 CF D0 BE   Length = 0 BitCount = 0 ID = 512
   1.918989 1  200             Rx   d 12 7E F9 56 BF 75 AD F5 3E C1 1D 82 3E   Length = 0 BitCount = 0 ID = 512
   1.938915 1  200             Rx   d 12 5A EB 5C BE B3 E5 5C 3F 56 02 EA BE   Length = 0 BitCount = 0 ID = 512
   1.956923 1  200             Rx   d 12 B5 D7 93 BE 04 BF 5D 3F 12 CF D0 BE   Length = 0 BitCount = 0 ID = 512
   1.975948 1  200             Rx   d 12 23 65 89 B7 11 1C 51 3F E3 AD 13 BF   Length = 0 BitCount = 0 ID = 512
   1.995597 1  200             Rx   d 12 CC D7 93 BE 04 BF 5D 3F 00 CF D0 BE   Length = 0 BitCount = 0 ID = 512
   2.015149 1  200             Rx   d 12 12 08 75 BE 0D FF F4 3E 0F 48 58 BF   Length = 0 BitCount = 0 ID = 512
   2.033645 1  200             Rx   d 12 70 DE 43 BF D7 37 23 3F EF 62 B8 3D   Length = 0 BitCount = 0 ID = 512
   2.067640 1  200             Rx   d 12 DC 9D 5C BF 37 18 BD 3E D4 0B B2 3E   Length = 0 BitCount = 0 ID = 512
   2.071125 1  200             Rx   d 12 B5 D7 93 BE 04 BF 5D 3F 12 CF D0 BE   Length = 0 BitCount = 0 ID = 512
   2.090441 1  200             Rx   d 12 70 DE 43 BF D7 37 23 3F EF 62 B8 3D   Length = 0 BitCount = 0 ID = 512
   2.109654 1  200             Rx   d 12 9A AF 2F BE BE 94 5B 3F 1F 1F F8 BE   Length = 0 BitCount = 0 ID = 512
   2.143668 1  200             Rx   d 12 87 D7 93 BE 04 BF 5D 3F 33 CF D0 BE   Length = 0 BitCount = 0 ID = 512
   2.147684 1  200             Rx   d 12 DD 9D 5C BF 27 18 BD 3E E1 0B B2 3E   Length = 0 BitCount = 0 ID = 512
   2.167146 1  200             Rx   d 12 23 5A DA BE C8 56 5A 3F 16 34 9A BE   Length = 0 BitCount = 0 ID = 512
   2.185767 1  200             Rx   d 12 9A AF 2F BE BE 94 5B 3F 1F 1F F8 BE   Length = 0 BitCount = 0 ID = 512
   2.205084 1  200             Rx   d 12 76 58 5A BF C9 56 DA 3E 56 2F 9A 3E   Length = 0 BitCount = 0 ID = 512
   2.223872 1  200             Rx   d 12 DC 9D 5C BF 37 18 BD 3E D4 0B B2 3E   Length = 0 BitCount = 0 ID = 512
   2.242736 1  200             Rx   d 12 5A EB 5C BE B3 E5 5C 3F 56 02 EA BE   Length = 0 BitCount = 0 ID = 512
   2.261775 1  200             Rx   d 12 76 58 5A BF C9 56 DA 3E 56 2F 9A 3E   Length = 0 BitCount = 0 ID = 512
   2.280172 1  200             Rx   d 12 77 58 5A BF BA 56 DA 3E 63 2F 9A 3E   Length = 0 BitCount = 0 ID = 512
   2.299735 1  200             Rx   d 12 CC D7 93 BE 04 BF 5D 3F 00 CF D0 BE   Length = 0 BitCount = 0 ID = 512
   2.318301 1  200             Rx   d 12 23 5A DA BE C8 56 5A 3F 16 34 9A BE   Length = 0 BitCount = 0 ID = 512
   2.338006 1  200             Rx   d 12 C5 F5 B0 BE 3F 2F 5D 3F 0A 74 BB BE   Length = 0 BitCount = 0 ID = 512
   2.356834 1  200             Rx   d 12 B5 D7 93 BE 04 BF 5D 3F 12 CF D0 BE   Length = 0 BitCount = 0 ID = 512
   2.376060 1  200             Rx   d 12 12 5C 0B BF 6D 07 51 3F 74 D8 44 BE   Length = 0 BitCount = 0 ID = 512
   2.394835 1  200             Rx   d 12 5A EB 5C BE B3 E5 5C 3F 56 02 EA BE   Length = 0 BitCount = 0 ID = 512
   2.432981 1  200             Rx   d 12 12 5C 0B BF 6D 07 51 3F 74 D8 44 BE   Length = 0 BitCount = 0 ID = 512
   2.451223 1  200             Rx   d 12 E0 05 35 BF 06 04 35 3F 0D 29 A8 B7   Length = 0 BitCount = 0 ID = 512
   2.489988 1  200             Rx   d 12 38 18 18 BF 89 C8 4A 3F 87 3A 0F BE   Length = 0 BitCount = 0 ID = 512
   2.508707 1  200             Rx   d 12 5A CA 4A BF 66 16 18 3F 3C 30 0F 3E   Length = 0 BitCount = 0 ID = 512
   2.527114 1  200             Rx   d 12 5A EB 5C BE B3 E5 5C 3F 56 02 EA BE   Length = 0 BitCount = 0 ID = 512
   2.546951 1  200             Rx   d 12 23 5A DA BE C8 56 5A 3F 16 34 9A BE   Length = 0 BitCount = 0 ID = 512
   2.565179 1  200             Rx   d 12 12 5C 0B BF 6D 07 51 3F 74 D8 44 BE   Length = 0 BitCount = 0 ID = 512
   2.584254 1  200             Rx   d 12 CC D7 93 BE 04 BF 5D 3F 00 CF D0 BE   Length = 0 BitCount = 0 ID = 512
   2.603742 1  200             Rx   d 12 3A 5A DA BE C7 56 5A 3F 02 34 9A BE   Length = 0 BitCount = 0 ID = 512
   2.623227 1  200             Rx   d 12 4B F6 1E BF 95 B1 46 3F 9D 8D E0 BD   Length = 0 BitCount = 0 ID = 512
   2.641881 1  200             Rx   d 12 B5 D7 93 BE 04 BF 5D 3F 12 CF D0 BE   Length = 0 BitCount = 0 ID = 512
   2.660989 1  200             Rx   d 12 12 5C 0B BF 6D 07 51 3F 74 D8 44 BE   Length = 0 BitCount = 0 ID = 512
   2.679257 1  200             Rx   d 12 75 58 5A BF C9 56 DA 3E 57 2F 9A 3E   Length = 0 BitCount = 0 ID = 512
   2.698772 1  200             Rx   d 12 C5 F5 B0 BE 3F 2F 5D 3F 0A 74 BB BE   Length = 0 BitCount = 0 ID = 512
   2.718166 1  200             Rx   d 12 12 5C 0B BF 6D 07 51 3F 74 D8 44 BE   Length = 0 BitCount = 0 ID = 512
   2.736805 1  200             Rx   d 12 5C CA 4A BF 63 16 18 3F 50 30 0F 3E   Length = 0 BitCount = 0 ID = 512
   2.755664 1  200             Rx   d 12 E0 05 35 BF 06 04 35 3F 0D 29 A8 B7   Length = 0 BitCount = 0 ID = 512
   2.774907 1  200             Rx   d 12 DF 05 35 BF 06 04 35 3F 73 4B A8 B7   Length = 0 BitCount = 0 ID = 512
   2.812691 1  200             Rx   d 12 E1 05 35 BF 06 04 35 3F F3 28 A8 B7   Length = 0 BitCount = 0 ID = 512
   2.831865 1  200             Rx   d 12 5A CA 4A BF 66 16 18 3F 3C 30 0F 3E   Length = 0 BitCount = 0 ID = 512
   2.850126 1  200             Rx   d 12 9A AF 2F BE BE 94 5B 3F 1F 1F F8 BE   Length = 0 BitCount = 0 ID = 512
   2.869258 1  200             Rx   d 12 12 5C 0B BF 6D 07 51 3F 74 D8 44 BE   Length = 0 BitCount = 0 ID = 512
   2.902919 1  200             Rx   d 12 6C 3E 5C BF 6B C4 43 3E D0 EF F1 3E   Length = 0 BitCount = 0 ID = 512
   2.907520 1  200             Rx   d 12 12 5C 0B BF 6D 07 51 3F 74 D8 44 BE   Length = 0 BitCount = 0 ID = 512
   2.926734 1  200             Rx   d 12 9A AF 2F BE BE 94 5B 3F 1F 1F F8 BE   Length = 0 BitCount = 0 ID = 512
   2.945409 1  200             Rx   d 12 B5 D7 93 BE 04 BF 5D 3F 12 CF D0 BE   Length = 0 BitCount = 0 ID = 512
   2.965136 1  200             Rx   d 12 5A EB 5C BE B3 E5 5C 3F 56 02 EA BE   Length = 0 BitCount = 0 ID = 512
   2.983691 1  200             Rx   d 12 12 5C 0B BF 6D 07 51 3F 74 D8 44 BE   Length = 0 BitCount = 0 ID = 512
   3.003048 1  200             Rx   d 12 9A AF 2F BE BE 94 5B 3F 1F 1F F8 BE   Length = 0 BitCount = 0 ID = 512
   3.022009 1  200             Rx   d 12 B5 D7 93 BE 04 BF 5D 3F 12 CF D0 BE   Length = 0 BitCount = 0 ID = 512
   3.040730 1  200             Rx   d 12 B5 D7 93 BE 04 BF 5D 3F 12 CF D0 BE   Length = 0 BitCount = 0 ID = 512
   3.074399 1  200             Rx   d 12 D7 63 5A BF F5 96 11 3E C5 84 00 3F   Length = 0 BitCount = 0 ID = 512
   3.079318 1  200             Rx   d 12 5A EB 5C BE B3 E5 5C 3F 56 02 EA BE   Length = 0 BitCount = 0 ID = 512
   3.097951 1  200             Rx   d 12 B5 D7 93 BE 04 BF 5D 3F 12 CF D0 BE   Length = 0 BitCount = 0 ID = 512
   3.135858 1  200             Rx   d 12 B5 D7 93 BE 04 BF 5D 3F 12 CF D0 BE   Length = 0 BitCount = 0 ID = 512
   3.155230 1  200             Rx   d 12 9A AF 2F BE BE 94 5B 3F 1F 1F F8 BE   Length = 0 BitCount = 0 ID = 512
   3.173716 1  200             Rx   d 12 23 5A DA BE C8 56 5A 3F 16 34 9A BE   Length = 0 BitCount = 0 ID = 512
   3.193019 1  200             Rx   d 12 0A EB 5C BE B1 E5 5C 3F 6E 02 EA BE   Length = 0 BitCount = 0 ID = 512
   3.210847 1  200             Rx   d 12 B5 D7 93 BE 04 BF 5D 3F 12 CF D0 BE   Length = 0 BitCount = 0 ID = 512
   3.230688 1  200             Rx   d 12 9A AF 2F BE BE 94 5B 3F 1F 1F F8 BE   Length = 0 BitCount = 0 ID = 512
   3.250059 1  200             Rx   d 12 B5 D7 93 BE 04 BF 5D 3F 12 CF D0 BE   Length = 0 BitCount = 0 ID = 512
   3.269009 1  200             Rx   d 12 B5 D7 93 BE 04 BF 5D 3F 12 CF D0 BE   Length = 0 BitCount = 0 ID = 512
   3.287613 1  200             Rx   d 12 B5 D7 93 BE 04 BF 5D 3F 12 CF D0 BE   Length = 0 BitCount = 0 ID = 512
   3.322051 1  200             Rx   d 12 5A EB 5C BE B3 E5 5C 3F 56 02 EA BE   Length = 0 BitCount = 0 ID = 512
   3.326207 1  200             Rx   d 12 B5 D7 93 BE 04 BF 5D 3F 12 CF D0 BE   Length = 0 BitCount = 0 ID = 512
   3.344729 1  200             Rx   d 12 CC D7 93 BE 04 BF 5D 3F 00 CF D0 BE   Length = 0 BitCount = 0 ID = 512
   3.362994 1  200             Rx   d 12 B5 D7 93 BE 04 BF 5D 3F 12 CF D0 BE   Length = 0 BitCount = 0 ID = 512
   3.401912 1  200             Rx   d 12 23 65 89 B7 11 1C 51 3F E3 AD 13 BF   Length = 0 BitCount = 0 ID = 512
   3.420908 1  200             Rx   d 12 B5 D7 93 BE 04 BF 5D 3F 12 CF D0 BE   Length = 0 BitCount = 0 ID = 512
   3.440200 1  200             Rx   d 12 B5 D7 93 BE 04 BF 5D 3F 12 CF D0 BE   Length = 0 BitCount = 0 ID = 512
   3.459054 1  200             Rx   d 12 FD 79 5D BF 0A 1C 7D 3E D1 6D DF 3E   Length = 0 BitCount = 0 ID = 512
   3.492924 1  200             Rx   d 12 B5 D7 93 BE 04 BF 5D 3F 12 CF D0 BE   Length = 0 BitCount = 0 ID = 512
   3.515899 1  200             Rx   d 12 18 96 5B BF 39 AA 2F 3E 4D 1B F8 3E   Length = 0 BitCount = 0 ID = 512
   3.535135 1  200             Rx   d 12 FD 79 5D BF 13 1C 7D 3E CE 6D DF 3E   Length = 0 BitCount = 0 ID = 512
   3.553259 1  200             Rx   d 12 B5 D7 93 BE 04 BF 5D 3F 12 CF D0 BE   Length = 0 BitCount = 0 ID = 512
   3.588435 1  200             Rx   d 12 B5 D7 93 BE 04 BF 5D 3F 12 CF D0 BE   Length = 0 BitCount = 0 ID = 512
   3.611209 1  200             Rx   d 12 B5 D7 93 BE 04 BF 5D 3F 12 CF D0 BE   Length = 0 BitCount = 0 ID = 512
   3.630158 1  200             Rx   d 12 18 96 5B BF 33 AA 2F 3E 4E 1B F8 3E   Length = 0 BitCount = 0 ID = 512
   3.648307 1  200             Rx   d 12 16 96 5B BF 1C AA 2F 3E 56 1B F8 3E   Length = 0 BitCount = 0 ID = 512
   3.667944 1  200             Rx   d 12 CC D7 93 BE 04 BF 5D 3F 00 CF D0 BE   Length = 0 BitCount = 0 ID = 512
   3.687145 1  200             Rx   d 12 5A EB 5C BE B3 E5 5C 3F 56 02 EA BE   Length = 0 BitCount = 0 ID = 512
   3.705880 1  200             Rx   d 12 18 96 5B BF 33 AA 2F 3E 4E 1B F8 3E   Length = 0 BitCount = 0 ID = 512
   3.724947 1  200             Rx   d 12 B5 D7 93 BE 04 BF 5D 3F 12 CF D0 BE   Length = 0 BitCount = 0 ID = 512
   3.759023 1  200             Rx   d 12 B5 D7 93 BE 04 BF 5D 3F 12 CF D0 BE   Length = 0 BitCount = 0 ID = 512
   3.763204 1  200             Rx   d 12 79 AC 5D BF 3A 69 88 3E 20 BF D8 3E   Length = 0 BitCount = 0 ID = 512
   3.782103 1  200             Rx   d 12 B5 D7 93 BE 04 BF 5D 3F 12 CF D0 BE   Length = 0 BitCount = 0 ID = 512
   3.801103 1  200             Rx   d 12 B5 D7 93 BE 04 BF 5D 3F 12 CF D0 BE   Length = 0 BitCount = 0 ID = 512
   3.839072 1  200             Rx   d 12 76 EB 5C BE B3 E5 5C 3F 4D 02 EA BE   Length = 0 BitCount = 0 ID = 512
   3.857659 1  200             Rx   d 12 B5 D7 93 BE 04 BF 5D 3F 12 CF D0 BE   Length = 0 BitCount = 0 ID = 512
   3.877307 1  200             Rx   d 12 B5 D7 93 BE 04 BF 5D 3F 12 CF D0 BE   Length = 0 BitCount = 0 ID = 512
   3.895930 1  200             Rx   d 12 52 77 5C BF 8E 80 4B 3E F1 84 EF 3E   Length = 0 BitCount = 0 ID = 512
   3.929340 1  200             Rx   d 12 B5 D7 93 BE 04 BF 5D 3F 12 CF D0 BE   Length = 0 BitCount = 0 ID = 512
   3.933865 1  200             Rx   d 12 B5 D7 93 BE 04 BF 5D 3F 12 CF D0 BE   Length = 0 BitCount = 0 ID = 512
   3.953115 1  200             Rx   d 12 52 77 5C BF 8E 80 4B 3E F1 84 EF 3E   Length = 0 BitCount = 0 ID = 512
   3.971398 1  200             Rx   d 12 38 65 89 B7 12 1C 51 3F E3 AD 13 BF   Length = 0 BitCount = 0 ID = 512
   4.006336 1  200             Rx   d 12 76 EB 5C BE B3 E5 5C 3F 4D 02 EA BE   Length = 0 BitCount = 0 ID = 512
   4.010336 1  200             Rx   d 12 53 77 5C BF 97 80 4B 3E EF 84 EF 3E   Length = 0 BitCount = 0 ID = 512
   4.029024 1  200             Rx   d 12 23 65 89 B7 11 1C 51 3F E3 AD 13 BF   Length = 0 BitCount = 0 ID = 512
   4.048249 1  200             Rx   d 12 B5 D7 93 BE 04 BF 5D 3F 12 CF D0 BE   Length = 0 BitCount = 0 ID = 512
   4.067262 1  200             Rx   d 12 23 65 89 B7 11 1C 51 3F E3 AD 13 BF   Length = 0 BitCount = 0 ID = 512
   4.086410 1  200             Rx   d 12 23 65 89 B7 11 1C 51 3F E3 AD 13 BF   Length = 0 BitCount = 0 ID = 512
   4.104870 1  200             Rx   d 12 87 D7 93 BE 04 BF 5D 3F 33 CF D0 BE   Length = 0 BitCount = 0 ID = 512
   4.124255 1  200             Rx   d 12 23 65 89 B7 11 1C 51 3F E3 AD 13 BF   Length = 0 BitCount = 0 ID = 512
   4.143349 1  200             Rx   d 12 D8 8D 89 B7 12 1C 51 3F E3 AD 13 BF   Length = 0 BitCount = 0 ID = 512
   4.162389 1  200             Rx   d 12 B5 D7 93 BE 04 BF 5D 3F 12 CF D0 BE   Length = 0 BitCount = 0 ID = 512
   4.181254 1  200             Rx   d 12 23 65 89 B7 11 1C 51 3F E3 AD 13 BF   Length = 0 BitCount = 0 ID = 512
   4.200180 1  200             Rx   d 12 23 65 89 B7 11 1C 51 3F E3 AD 13 BF   Length = 0 BitCount = 0 ID = 512
   4.218466 1  200             Rx   d 12 B5 D7 93 BE 04 BF 5D 3F 12 CF D0 BE   Length = 0 BitCount = 0 ID = 512
   4.238132 1  200             Rx   d 12 87 D7 93 BE 04 BF 5D 3F 33 CF D0 BE   Length = 0 BitCount = 0 ID = 512
   4.257372 1  200             Rx   d 12 CC D7 93 BE 04 BF 5D 3F 00 CF D0 BE   Length = 0 BitCount = 0 ID = 512
   4.275597 1  200             Rx   d 12 B5 D7 93 BE 04 BF 5D 3F 12 CF D0 BE   Length = 0 BitCount = 0 ID = 512
   4.294377 1  200             Rx   d 12 9A AF 2F BE BE 94 5B 3F 1F 1F F8 BE   Length = 0 BitCount = 0 ID = 512
   4.352325 1  200             Rx   d 12 23 65 89 B7 11 1C 51 3F E3 AD 13 BF   Length = 0 BitCount = 0 ID = 512
   4.370981 1  200             Rx   d 12 23 65 89 B7 11 1C 51 3F E3 AD 13 BF   Length = 0 BitCount = 0 ID = 512
   4.390265 1  200             Rx   d 12 CE 4D 5D BF 79 6A 71 3E 82 50 E3 3E   Length = 0 BitCount = 0 ID = 512
   4.423862 1  200             Rx   d 12 CF 4D 5D BF A0 6A 71 3E 75 50 E3 3E   Length = 0 BitCount = 0 ID = 512
   4.427866 1  200             Rx   d 12 B5 D7 93 BE 04 BF 5D 3F 12 CF D0 BE   Length = 0 BitCount = 0 ID = 512
   4.466485 1  200             Rx   d 12 B5 D7 93 BE 04 BF 5D 3F 12 CF D0 BE   Length = 0 BitCount = 0 ID = 512
   4.485020 1  200             Rx   d 12 5A EB 5C BE B3 E5 5C 3F 56 02 EA BE   Length = 0 BitCount = 0 ID = 512
   4.504165 1  200             Rx   d 12 CF 4D 5D BF 96 6A 71 3E 78 50 E3 3E   Length = 0 BitCount = 0 ID = 512
   4.523407 1  200             Rx   d 12 B5 D7 93 BE 04 BF 5D 3F 12 CF D0 BE   Length = 0 BitCount = 0 ID = 512
   4.561106 1  200             Rx   d 12 B5 D7 93 BE 04 BF 5D 3F 12 CF D0 BE   Length = 0 BitCount = 0 ID = 512
   4.594058 1  200             Rx   d 12 DE 8F 52 BF C5 5B 8F 3C 35 88 11 3F   Length = 0 BitCount = 0 ID = 512
   4.599056 1  200             Rx   d 12 5A EB 5C BE B3 E5 5C 3F 56 02 EA BE   Length = 0 BitCount = 0 ID = 512
   4.617976 1  200             Rx   d 12 B5 D7 93 BE 04 BF 5D 3F 12 CF D0 BE   Length = 0 BitCount = 0 ID = 512
   4.637177 1  200             Rx   d 12 4A 9E 5D BF B0 F7 84 3E AA 19 DB 3E   Length = 0 BitCount = 0 ID = 512
   4.655949 1  200             Rx   d 12 B5 D7 93 BE 04 BF 5D 3F 12 CF D0 BE   Length = 0 BitCount = 0 ID = 512
   4.675158 1  200             Rx   d 12 12 5C 0B BF 6D 07 51 3F 74 D8 44 BE   Length = 0 BitCount = 0 ID = 512
   4.694070 1  200             Rx   d 12 49 9E 5D BF A2 F7 84 3E B6 19 DB 3E   Length = 0 BitCount = 0 ID = 512
   4.713264 1  200             Rx   d 12 B5 D7 93 BE 04 BF 5D 3F 12 CF D0 BE   Length = 0 BitCount = 0 ID = 512
   4.732320 1  200             Rx   d 12 B5 D7 93 BE 04 BF 5D 3F 12 CF D0 BE   Length = 0 BitCount = 0 ID = 512
   4.766311 1  200             Rx   d 12 75 58 5A BF C9 56 DA 3E 57 2F 9A 3E   Length = 0 BitCount = 0 ID = 512
   4.770483 1  200             Rx   d 12 B5 D7 93 BE 04 BF 5D 3F 12 CF D0 BE   Length = 0 BitCount = 0 ID = 512
   4.789171 1  200             Rx   d 12 B5 D7 93 BE 04 BF 5D 3F 12 CF D0 BE   Length = 0 BitCount = 0 ID = 512
   4.807926 1  200             Rx   d 12 88 C0 5D BF AE D4 93 3E C7 CA D0 3E   Length = 0 BitCount = 0 ID = 512
   4.846150 1  200             Rx   d 12 87 D7 93 BE 04 BF 5D 3F 33 CF D0 BE   Length = 0 BitCount = 0 ID = 512
   4.884634 1  200             Rx   d 12 87 C0 5D BF B6 D4 93 3E C2 CA D0 3E   Length = 0 BitCount = 0 ID = 512
   4.903149 1  200             Rx   d 12 5A EB 5C BE B3 E5 5C 3F 56 02 EA BE   Length = 0 BitCount = 0 ID = 512
   4.936554 1  200             Rx   d 12 B5 D7 93 BE 04 BF 5D 3F 12 CF D0 BE   Length = 0 BitCount = 0 ID = 512
   4.941542 1  200             Rx   d 12 B5 D7 93 BE 04 BF 5D 3F 12 CF D0 BE   Length = 0 BitCount = 0 ID = 512
   4.960402 1  200             Rx   d 12 B5 D7 93 BE 04 BF 5D 3F 12 CF D0 BE   Length = 0 BitCount = 0 ID = 512
   4.979345 1  200             Rx   d 12 87 D7 93 BE 04 BF 5D 3F 33 CF D0 BE   Length = 0 BitCount = 0 ID = 512
   5.017324 1  200             Rx   d 12 B4 87 5D BF A7 24 A6 3E AF 8B C3 3E   Length = 0 BitCount = 0 ID = 512
   5.036055 1  200             Rx   d 12 5A EB 5C BE B3 E5 5C 3F 56 02 EA BE   Length = 0 BitCount = 0 ID = 512
   5.055153 1  200             Rx   d 12 B5 D7 93 BE 04 BF 5D 3F 12 CF D0 BE   Length = 0 BitCount = 0 ID = 512
   5.074332 1  200             Rx   d 12 B5 87 5D BF 9D 24 A6 3E B5 8B C3 3E   Length = 0 BitCount = 0 ID = 512
   5.107465 1  200             Rx   d 12 B5 D7 93 BE 04 BF 5D 3F 12 CF D0 BE   Length = 0 BitCount = 0 ID = 512
   5.112463 1  200             Rx   d 12 B5 D7 93 BE 04 BF 5D 3F 12 CF D0 BE   Length = 0 BitCount = 0 ID = 512
   5.131170 1  200             Rx   d 12 76 58 5A BF C9 56 DA 3E 56 2F 9A 3E   Length = 0 BitCount = 0 ID = 512
   5.168749 1  200             Rx   d 12 76 EB 5C BE B3 E5 5C 3F 4D 02 EA BE   Length = 0 BitCount = 0 ID = 512
   5.188442 1  200             Rx   d 12 5A EB 5C BE B3 E5 5C 3F 56 02 EA BE   Length = 0 BitCount = 0 ID = 512
   5.207110 1  200             Rx   d 12 87 C0 5D BF AF D4 93 3E C9 CA D0 3E   Length = 0 BitCount = 0 ID = 512
   5.225862 1  200             Rx   d 12 B5 D7 93 BE 04 BF 5D 3F 12 CF D0 BE   Length = 0 BitCount = 0 ID = 512
   5.245582 1  200             Rx   d 12 5A EB 5C BE B3 E5 5C 3F 56 02 EA BE   Length = 0 BitCount = 0 ID = 512
   5.264134 1  200             Rx   d 12 DC 9D 5C BF 37 18 BD 3E D4 0B B2 3E   Length = 0 BitCount = 0 ID = 512
   5.283534 1  200             Rx   d 12 B5 D7 93 BE 04 BF 5D 3F 12 CF D0 BE   Length = 0 BitCount = 0 ID = 512
   5.302306 1  200             Rx   d 12 B5 D7 93 BE 04 BF 5D 3F 12 CF D0 BE   Length = 0 BitCount = 0 ID = 512
   5.321540 1  200             Rx   d 12 DD 9D 5C BF 27 18 BD 3E E1 0B B2 3E   Length = 0 BitCount = 0 ID = 512
   5.340255 1  200             Rx   d 12 80 F9 56 BF 69 AD F5 3E CB 1D 82 3E   Length = 0 BitCount = 0 ID = 512
   5.359422 1  200             Rx   d 12 B5 D7 93 BE 04 BF 5D 3F 12 CF D0 BE   Length = 0 BitCount = 0 ID = 512
   5.378158 1  200             Rx   d 12 B5 D7 93 BE 04 BF 5D 3F 12 CF D0 BE   Length = 0 BitCount = 0 ID = 512
   5.397312 1  200             Rx   d 12 7E F9 56 BF 75 AD F5 3E C1 1D 82 3E   Length = 0 BitCount = 0 ID = 512
   5.431540 1  200             Rx   d 12 B5 D7 93 BE 04 BF 5D 3F 12 CF D0 BE   Length = 0 BitCount = 0 ID = 512
   5.434453 1  200             Rx   d 12 B5 D7 93 BE 04 BF 5D 3F 12 CF D0 BE   Length = 0 BitCount = 0 ID = 512
   5.454519 1  200             Rx   d 12 36 09 51 BF 49 5A 0B 3F 58 CE 44 3E   Length = 0 BitCount = 0 ID = 512
   5.473317 1  200             Rx   d 12 87 D7 93 BE 04 BF 5D 3F 33 CF D0 BE   Length = 0 BitCount = 0 ID = 512
   5.491585 1  200             Rx   d 12 76 EB 5C BE B3 E5 5C 3F 4D 02 EA BE   Length = 0 BitCount = 0 ID = 512
   5.525397 1  200             Rx   d 12 E1 05 35 BF 06 04 35 3F F3 28 A8 B7   Length = 0 BitCount = 0 ID = 512
   5.530413 1  200             Rx   d 12 12 5C 0B BF 6D 07 51 3F 74 D8 44 BE   Length = 0 BitCount = 0 ID = 512
   5.549343 1  200             Rx   d 12 5A EB 5C BE B3 E5 5C 3F 56 02 EA BE   Length = 0 BitCount = 0 ID = 512
   5.567871 1  200             Rx   d 12 B5 D7 93 BE 04 BF 5D 3F 12 CF D0 BE   Length = 0 BitCount = 0 ID = 512
   5.587805 1  200             Rx   d 12 E1 05 35 BF 06 04 35 3F F3 28 A8 B7   Length = 0 BitCount = 0 ID = 512
   5.606478 1  200             Rx   d 12 5A EB 5C BE B3 E5 5C 3F 56 02 EA BE   Length = 0 BitCount = 0 ID = 512
   5.625312 1  200             Rx   d 12 0A EB 5C BE B1 E5 5C 3F 6E 02 EA BE   Length = 0 BitCount = 0 ID = 512
   5.644598 1  200             Rx   d 12 38 09 51 BF 46 5A 0B 3F 6A CE 44 3E   Length = 0 BitCount = 0 ID = 512
   5.681248 1  200             Rx   d 12 5A EB 5C BE B3 E5 5C 3F 56 02 EA BE   Length = 0 BitCount = 0 ID = 512
   5.701376 1  200             Rx   d 12 5A EB 5C BE B3 E5 5C 3F 56 02 EA BE   Length = 0 BitCount = 0 ID = 512
   5.720357 1  200             Rx   d 12 F0 59 55 BF B7 01 00 3F 3F 0C 71 3E   Length = 0 BitCount = 0 ID = 512
   5.739470 1  200             Rx   d 12 12 5C 0B BF 6D 07 51 3F 74 D8 44 BE   Length = 0 BitCount = 0 ID = 512
   5.772337 1  200             Rx   d 12 5A EB 5C BE B3 E5 5C 3F 56 02 EA BE   Length = 0 BitCount = 0 ID = 512
   5.777420 1  200             Rx   d 12 5A CA 4A BF 66 16 18 3F 3C 30 0F 3E   Length = 0 BitCount = 0 ID = 512
   5.795927 1  200             Rx   d 12 3A 5A DA BE C7 56 5A 3F 02 34 9A BE   Length = 0 BitCount = 0 ID = 512
   5.815666 1  200             Rx   d 12 B5 D7 93 BE 04 BF 5D 3F 12 CF D0 BE   Length = 0 BitCount = 0 ID = 512
   5.849826 1  200             Rx   d 12 5A CA 4A BF 66 16 18 3F 3C 30 0F 3E   Length = 0 BitCount = 0 ID = 512
   5.853443 1  200             Rx   d 12 23 5A DA BE C8 56 5A 3F 16 34 9A BE   Length = 0 BitCount = 0 ID = 512
   5.872728 1  200             Rx   d 12 69 B3 46 BF 77 F4 1E 3F D9 78 E0 3D   Length = 0 BitCount = 0 ID = 512
   5.891355 1  200             Rx   d 12 E1 05 35 BF 06 04 35 3F F3 28 A8 B7   Length = 0 BitCount = 0 ID = 512
   5.910427 1  200             Rx   d 12 E0 05 35 BF 06 04 35 3F 0C 7F A8 B7   Length = 0 BitCount = 0 ID = 512
   5.929196 1  200             Rx   d 12 87 D7 93 BE 04 BF 5D 3F 33 CF D0 BE   Length = 0 BitCount = 0 ID = 512
   5.948386 1  200             Rx   d 12 3A 5A DA BE C7 56 5A 3F 02 34 9A BE   Length = 0 BitCount = 0 ID = 512
   5.967401 1  200             Rx   d 12 E1 05 35 BF 06 04 35 3F F3 28 A8 B7   Length = 0 BitCount = 0 ID = 512
   5.986253 1  200             Rx   d 12 E0 05 35 BF 06 04 35 3F 0C 7F A8 B7   Length = 0 BitCount = 0 ID = 512
   6.019616 1  200             Rx   d 12 23 5A DA BE C8 56 5A 3F 16 34 9A BE   Length = 0 BitCount = 0 ID = 512
   6.023678 1  200             Rx   d 12 5A EB 5C BE B3 E5 5C 3F 56 02 EA BE   Length = 0 BitCount = 0 ID = 512
   6.043220 1  200             Rx   d 12 12 5C 0B BF 6D 07 51 3F 74 D8 44 BE   Length = 0 BitCount = 0 ID = 512
   6.062730 1  200             Rx   d 12 5A CA 4A BF 66 16 18 3F 3C 30 0F 3E   Length = 0 BitCount = 0 ID = 512
   6.080905 1  200             Rx   d 12 0A 5A DA BE CB 56 5A 3F 2A 34 9A BE   Length = 0 BitCount = 0 ID = 512
   6.100128 1  200             Rx   d 12 E0 05 35 BF 07 04 35 3F FB FD A7 B7   Length = 0 BitCount = 0 ID = 512
   6.138376 1  200             Rx   d 12 B5 D7 93 BE 04 BF 5D 3F 12 CF D0 BE   Length = 0 BitCount = 0 ID = 512
   6.157529 1  200             Rx   d 12 38 18 18 BF 89 C8 4A 3F 87 3A 0F BE   Length = 0 BitCount = 0 ID = 512
   6.191249 1  200             Rx   d 12 E0 05 35 BF 06 04 35 3F 0C 7F A8 B7   Length = 0 BitCount = 0 ID = 512
   6.195271 1  200             Rx   d 12 B5 D7 93 BE 04 BF 5D 3F 12 CF D0 BE   Length = 0 BitCount = 0 ID = 512
   6.214517 1  200             Rx   d 12 B5 D7 93 BE 04 BF 5D 3F 12 CF D0 BE   Length = 0 BitCount = 0 ID = 512
   6.233401 1  200             Rx   d 12 E0 05 35 BF 07 04 35 3F FB FD A7 B7   Length = 0 BitCount = 0 ID = 512
   6.252638 1  200             Rx   d 12 3A 5A DA BE C7 56 5A 3F 02 34 9A BE   Length = 0 BitCount = 0 ID = 512
   6.271637 1  200             Rx   d 12 12 5C 0B BF 6D 07 51 3F 74 D8 44 BE   Length = 0 BitCount = 0 ID = 512
   6.290335 1  200             Rx   d 12 5A EB 5C BE B3 E5 5C 3F 56 02 EA BE   Length = 0 BitCount = 0 ID = 512
   6.309644 1  200             Rx   d 12 5A EB 5C BE B3 E5 5C 3F 56 02 EA BE   Length = 0 BitCount = 0 ID = 512
   6.328389 1  200             Rx   d 12 5A EB 5C BE B3 E5 5C 3F 56 02 EA BE   Length = 0 BitCount = 0 ID = 512
   6.362568 1  200             Rx   d 12 B5 D7 93 BE 04 BF 5D 3F 12 CF D0 BE   Length = 0 BitCount = 0 ID = 512
   6.365860 1  200             Rx   d 12 5A EB 5C BE B3 E5 5C 3F 56 02 EA BE   Length = 0 BitCount = 0 ID = 512
   6.385589 1  200             Rx   d 12 B5 D7 93 BE 04 BF 5D 3F 12 CF D0 BE   Length = 0 BitCount = 0 ID = 512
   6.403726 1  200             Rx   d 12 CC 84 71 BE 04 1E 35 3F 75 8C 2A BF   Length = 0 BitCount = 0 ID = 512
   6.423501 1  200             Rx   d 12 CC D7 93 BE 04 BF 5D 3F 00 CF D0 BE   Length = 0 BitCount = 0 ID = 512
   6.442700 1  200             Rx   d 12 76 EB 5C BE B3 E5 5C 3F 4D 02 EA BE   Length = 0 BitCount = 0 ID = 512
   6.461662 1  200             Rx   d 12 5A EB 5C BE B3 E5 5C 3F 56 02 EA BE   Length = 0 BitCount = 0 ID = 512
   6.479893 1  200             Rx   d 12 D8 8D 89 B7 12 1C 51 3F E3 AD 13 BF   Length = 0 BitCount = 0 ID = 512
   6.499500 1  200             Rx   d 12 23 5A DA BE C8 56 5A 3F 16 34 9A BE   Length = 0 BitCount = 0 ID = 512
   6.533635 1  200             Rx   d 12 5A EB 5C BE B3 E5 5C 3F 56 02 EA BE   Length = 0 BitCount = 0 ID = 512
   6.537656 1  200             Rx   d 12 B5 D7 93 BE 04 BF 5D 3F 12 CF D0 BE   Length = 0 BitCount = 0 ID = 512
   6.556725 1  200             Rx   d 12 B5 D7 93 BE 04 BF 5D 3F 12 CF D0 BE   Length = 0 BitCount = 0 ID = 512
   6.575446 1  200             Rx   d 12 87 D7 93 BE 04 BF 5D 3F 33 CF D0 BE   Length = 0 BitCount = 0 ID = 512
   6.594959 1  200             Rx   d 12 CC D7 93 BE 04 BF 5D 3F 00 CF D0 BE   Length = 0 BitCount = 0 ID = 512
   6.613713 1  200             Rx   d 12 B5 D7 93 BE 04 BF 5D 3F 12 CF D0 BE   Length = 0 BitCount = 0 ID = 512
   6.632866 1  200             Rx   d 12 5A EB 5C BE B3 E5 5C 3F 56 02 EA BE   Length = 0 BitCount = 0 ID = 512
   6.651542 1  200             Rx   d 12 B5 D7 93 BE 04 BF 5D 3F 12 CF D0 BE   Length = 0 BitCount = 0 ID = 512
   6.670314 1  200             Rx   d 12 5A EB 5C BE B3 E5 5C 3F 56 02 EA BE   Length = 0 BitCount = 0 ID = 512
   6.705336 1  200             Rx   d 12 5A EB 5C BE B3 E5 5C 3F 56 02 EA BE   Length = 0 BitCount = 0 ID = 512
   6.708337 1  200             Rx   d 12 5A EB 5C BE B3 E5 5C 3F 56 02 EA BE   Length = 0 BitCount = 0 ID = 512
   6.727485 1  200             Rx   d 12 AA 05 5C BF F8 95 3C 3E D8 28 F4 3E   Length = 0 BitCount = 0 ID = 512
   6.746398 1  200             Rx   d 12 92 35 5D BF 5A F3 6B 3E 56 1C E5 3E   Length = 0 BitCount = 0 ID = 512
   6.765625 1  200             Rx   d 12 CC D7 93 BE 04 BF 5D 3F 00 CF D0 BE   Length = 0 BitCount = 0 ID = 512
   6.784702 1  200             Rx   d 12 5A EB 5C BE B3 E5 5C 3F 56 02 EA BE   Length = 0 BitCount = 0 ID = 512
   6.803439 1  200             Rx   d 12 18 96 5B BF 39 AA 2F 3E 4D 1B F8 3E   Length = 0 BitCount = 0 ID = 512
   6.822706 1  200             Rx   d 12 B5 D7 93 BE 04 BF 5D 3F 12 CF D0 BE   Length = 0 BitCount = 0 ID = 512
   6.841415 1  200             Rx   d 12 5A EB 5C BE B3 E5 5C 3F 56 02 EA BE   Length = 0 BitCount = 0 ID = 512
   6.874311 1  200             Rx   d 12 18 96 5B BF 33 AA 2F 3E 4E 1B F8 3E   Length = 0 BitCount = 0 ID = 512
   6.879337 1  200             Rx   d 12 B5 D7 93 BE 04 BF 5D 3F 12 CF D0 BE   Length = 0 BitCount = 0 ID = 512
   6.898461 1  200             Rx   d 12 5A EB 5C BE B3 E5 5C 3F 56 02 EA BE   Length = 0 BitCount = 0 ID = 512
   6.917802 1  200             Rx   d 12 CC D7 93 BE 04 BF 5D 3F 00 CF D0 BE   Length = 0 BitCount = 0 ID = 512
   6.951728 1  200             Rx   d 12 18 96 5B BF 39 AA 2F 3E 4D 1B F8 3E   Length = 0 BitCount = 0 ID = 512
   6.955780 1  200             Rx   d 12 5A EB 5C BE B3 E5 5C 3F 56 02 EA BE   Length = 0 BitCount = 0 ID = 512
   6.974744 1  200             Rx   d 12 B5 D7 93 BE 04 BF 5D 3F 12 CF D0 BE   Length = 0 BitCount = 0 ID = 512
   6.993505 1  200             Rx   d 12 FD 79 5D BF 13 1C 7D 3E CE 6D DF 3E   Length = 0 BitCount = 0 ID = 512
   7.012725 1  200             Rx   d 12 FD 79 5D BF 0A 1C 7D 3E D1 6D DF 3E   Length = 0 BitCount = 0 ID = 512
   7.031513 1  200             Rx   d 12 B5 D7 93 BE 04 BF 5D 3F 12 CF D0 BE   Length = 0 BitCount = 0 ID = 512
   7.050752 1  200             Rx   d 12 D8 8D 89 B7 12 1C 51 3F E3 AD 13 BF   Length = 0 BitCount = 0 ID = 512
   7.069662 1  200             Rx   d 12 FB 79 5D BF F3 1B 7D 3E D9 6D DF 3E   Length = 0 BitCount = 0 ID = 512
   7.088674 1  200             Rx   d 12 5A EB 5C BE B3 E5 5C 3F 56 02 EA BE   Length = 0 BitCount = 0 ID = 512
   7.107418 1  200             Rx   d 12 B5 D7 93 BE 04 BF 5D 3F 12 CF D0 BE   Length = 0 BitCount = 0 ID = 512
   7.126559 1  200             Rx   d 12 0B 63 BB B7 5F 47 1E BF B8 34 49 BF   Length = 0 BitCount = 0 ID = 512
   7.145941 1  200             Rx   d 12 5A EB 5C BE B3 E5 5C 3F 56 02 EA BE   Length = 0 BitCount = 0 ID = 512
   7.164525 1  200             Rx   d 12 5A EB 5C BE B3 E5 5C 3F 56 02 EA BE   Length = 0 BitCount = 0 ID = 512
   7.202513 1  200             Rx   d 12 B5 D7 93 BE 04 BF 5D 3F 12 CF D0 BE   Length = 0 BitCount = 0 ID = 512
   7.221544 1  200             Rx   d 12 9F B6 89 B7 13 1C 51 3F E2 AD 13 BF   Length = 0 BitCount = 0 ID = 512
   7.240635 1  200             Rx   d 12 B5 D7 93 BE 04 BF 5D 3F 12 CF D0 BE   Length = 0 BitCount = 0 ID = 512
   7.259411 1  200             Rx   d 12 23 65 89 B7 11 1C 51 3F E3 AD 13 BF   Length = 0 BitCount = 0 ID = 512
   7.278631 1  200             Rx   d 12 B5 D7 93 BE 04 BF 5D 3F 12 CF D0 BE   Length = 0 BitCount = 0 ID = 512
   7.297306 1  200             Rx   d 12 5A EB 5C BE B3 E5 5C 3F 56 02 EA BE   Length = 0 BitCount = 0 ID = 512
   7.335387 1  200             Rx   d 12 23 65 89 B7 11 1C 51 3F E3 AD 13 BF   Length = 0 BitCount = 0 ID = 512
   7.368928 1  200             Rx   d 12 5A EB 5C BE B3 E5 5C 3F 56 02 EA BE   Length = 0 BitCount = 0 ID = 512
   7.373450 1  200             Rx   d 12 9F B6 89 B7 13 1C 51 3F E2 AD 13 BF   Length = 0 BitCount = 0 ID = 512
   7.392787 1  200             Rx   d 12 D8 8D 89 B7 12 1C 51 3F E3 AD 13 BF   Length = 0 BitCount = 0 ID = 512
   7.411470 1  200             Rx   d 12 B5 D7 93 BE 04 BF 5D 3F 12 CF D0 BE   Length = 0 BitCount = 0 ID = 512
   7.430545 1  200             Rx   d 12 5A EB 5C BE B3 E5 5C 3F 56 02 EA BE   Length = 0 BitCount = 0 ID = 512
   7.449633 1  200             Rx   d 12 5A EB 5C BE B3 E5 5C 3F 56 02 EA BE   Length = 0 BitCount = 0 ID = 512
   7.468804 1  200             Rx   d 12 B5 D7 93 BE 04 BF 5D 3F 12 CF D0 BE   Length = 0 BitCount = 0 ID = 512
   7.487471 1  200             Rx   d 12 23 65 89 B7 11 1C 51 3F E3 AD 13 BF   Length = 0 BitCount = 0 ID = 512
   7.506580 1  200             Rx   d 12 CC D7 93 BE 04 BF 5D 3F 00 CF D0 BE   Length = 0 BitCount = 0 ID = 512
   7.541540 1  200             Rx   d 12 9F B6 89 B7 13 1C 51 3F E2 AD 13 BF   Length = 0 BitCount = 0 ID = 512
   7.544925 1  200             Rx   d 12 D8 8D 89 B7 12 1C 51 3F E3 AD 13 BF   Length = 0 BitCount = 0 ID = 512
   7.563539 1  200             Rx   d 12 B5 D7 93 BE 04 BF 5D 3F 12 CF D0 BE   Length = 0 BitCount = 0 ID = 512
   7.582557 1  200             Rx   d 12 87 C0 5D BF AF D4 93 3E C9 CA D0 3E   Length = 0 BitCount = 0 ID = 512
   7.601841 1  200             Rx   d 12 D8 8D 89 B7 12 1C 51 3F E3 AD 13 BF   Length = 0 BitCount = 0 ID = 512
   7.620897 1  200             Rx   d 12 D8 8D 89 B7 12 1C 51 3F E3 AD 13 BF   Length = 0 BitCount = 0 ID = 512
   7.639509 1  200             Rx   d 12 B5 D7 93 BE 04 BF 5D 3F 12 CF D0 BE   Length = 0 BitCount = 0 ID = 512
   7.658845 1  200             Rx   d 12 28 A2 5D BF F4 2E A1 3E C3 31 C7 3E   Length = 0 BitCount = 0 ID = 512
   7.696946 1  200             Rx   d 12 5A EB 5C BE B3 E5 5C 3F 56 02 EA BE   Length = 0 BitCount = 0 ID = 512
   7.715817 1  200             Rx   d 12 D3 30 5D BF 9A F2 B0 3E 8B 6F BB 3E   Length = 0 BitCount = 0 ID = 512
   7.734770 1  200             Rx   d 12 B5 D7 93 BE 04 BF 5D 3F 12 CF D0 BE   Length = 0 BitCount = 0 ID = 512
   7.753601 1  200             Rx   d 12 5A EB 5C BE B3 E5 5C 3F 56 02 EA BE   Length = 0 BitCount = 0 ID = 512
   7.787925 1  200             Rx   d 12 5A EB 5C BE B3 E5 5C 3F 56 02 EA BE   Length = 0 BitCount = 0 ID = 512
   7.791943 1  200             Rx   d 12 B5 D7 93 BE 04 BF 5D 3F 12 CF D0 BE   Length = 0 BitCount = 0 ID = 512
   7.811038 1  200             Rx   d 12 76 EB 5C BE B3 E5 5C 3F 4D 02 EA BE   Length = 0 BitCount = 0 ID = 512
   7.830137 1  200             Rx   d 12 76 EB 5C BE B3 E5 5C 3F 4D 02 EA BE   Length = 0 BitCount = 0 ID = 512
   7.848978 1  200             Rx   d 12 D3 30 5D BF A1 F2 B0 3E 85 6F BB 3E   Length = 0 BitCount = 0 ID = 512
   7.867879 1  200             Rx   d 12 B5 D7 93 BE 04 BF 5D 3F 12 CF D0 BE   Length = 0 BitCount = 0 ID = 512
   7.886760 1  200             Rx   d 12 B5 D7 93 BE 04 BF 5D 3F 12 CF D0 BE   Length = 0 BitCount = 0 ID = 512
   7.905503 1  200             Rx   d 12 5A EB 5C BE B3 E5 5C 3F 56 02 EA BE   Length = 0 BitCount = 0 ID = 512
   7.925107 1  200             Rx   d 12 5A EB 5C BE B3 E5 5C 3F 56 02 EA BE   Length = 0 BitCount = 0 ID = 512
   7.943908 1  200             Rx   d 12 5A EB 5C BE B3 E5 5C 3F 56 02 EA BE   Length = 0 BitCount = 0 ID = 512
   7.962948 1  200             Rx   d 12 6A B3 46 BF 75 F4 1E 3F EA 78 E0 3D   Length = 0 BitCount = 0 ID = 512
   7.981691 1  200             Rx   d 12 D5 30 5D BF 8C F2 B0 3E 96 6F BB 3E   Length = 0 BitCount = 0 ID = 512
   8.000842 1  200             Rx   d 12 5A EB 5C BE B3 E5 5C 3F 56 02 EA BE   Length = 0 BitCount = 0 ID = 512
   8.020128 1  200             Rx   d 12 B5 D7 93 BE 04 BF 5D 3F 12 CF D0 BE   Length = 0 BitCount = 0 ID = 512
   8.038468 1  200             Rx   d 12 A3 36 5C BF 58 BD C3 3E A0 C8 AC 3E   Length = 0 BitCount = 0 ID = 512
   8.057948 1  200             Rx   d 12 5A EB 5C BE B3 E5 5C 3F 56 02 EA BE   Length = 0 BitCount = 0 ID = 512
   8.076650 1  200             Rx   d 12 5A EB 5C BE B3 E5 5C 3F 56 02 EA BE   Length = 0 BitCount = 0 ID = 512
   8.095957 1  200             Rx   d 12 B6 87 5D BF 8F 24 A6 3E C3 8B C3 3E   Length = 0 BitCount = 0 ID = 512
   8.129870 1  200             Rx   d 12 A3 36 5C BF 4B BD C3 3E AB C8 AC 3E   Length = 0 BitCount = 0 ID = 512
   8.133908 1  200             Rx   d 12 D8 8D 89 B7 12 1C 51 3F E3 AD 13 BF   Length = 0 BitCount = 0 ID = 512
   8.153035 1  200             Rx   d 12 B5 D7 93 BE 04 BF 5D 3F 12 CF D0 BE   Length = 0 BitCount = 0 ID = 512
   8.171648 1  200             Rx   d 12 75 58 5A BF C9 56 DA 3E 57 2F 9A 3E   Length = 0 BitCount = 0 ID = 512
   8.190492 1  200             Rx   d 12 5A EB 5C BE B3 E5 5C 3F 56 02 EA BE   Length = 0 BitCount = 0 ID = 512
   8.209672 1  200             Rx   d 12 B5 D7 93 BE 04 BF 5D 3F 12 CF D0 BE   Length = 0 BitCount = 0 ID = 512
   8.228612 1  200             Rx   d 12 0A EB 5C BE B1 E5 5C 3F 6E 02 EA BE   Length = 0 BitCount = 0 ID = 512
   8.247978 1  200             Rx   d 12 76 EB 5C BE B3 E5 5C 3F 4D 02 EA BE   Length = 0 BitCount = 0 ID = 512
   8.266608 1  200             Rx   d 12 5A EB 5C BE B3 E5 5C 3F 56 02 EA BE   Length = 0 BitCount = 0 ID = 512
   8.301341 1  200             Rx   d 12 5A EB 5C BE B3 E5 5C 3F 56 02 EA BE   Length = 0 BitCount = 0 ID = 512
   8.304982 1  200             Rx   d 12 75 58 5A BF C9 56 DA 3E 57 2F 9A 3E   Length = 0 BitCount = 0 ID = 512
   8.323756 1  200             Rx   d 12 5A EB 5C BE B3 E5 5C 3F 56 02 EA BE   Length = 0 BitCount = 0 ID = 512
   8.342953 1  200             Rx   d 12 5A EB 5C BE B3 E5 5C 3F 56 02 EA BE   Length = 0 BitCount = 0 ID = 512
   8.361891 1  200             Rx   d 12 75 58 5A BF C9 56 DA 3E 57 2F 9A 3E   Length = 0 BitCount = 0 ID = 512
   8.381120 1  200             Rx   d 12 5A EB 5C BE B3 E5 5C 3F 56 02 EA BE   Length = 0 BitCount = 0 ID = 512
   8.399446 1  200             Rx   d 12 CC D7 93 BE 04 BF 5D 3F 00 CF D0 BE   Length = 0 BitCount = 0 ID = 512
   8.418946 1  200             Rx   d 12 DC 9D 5C BF 37 18 BD 3E D4 0B B2 3E   Length = 0 BitCount = 0 ID = 512
   8.437550 1  200             Rx   d 12 7E F9 56 BF 75 AD F5 3E C1 1D 82 3E   Length = 0 BitCount = 0 ID = 512
   8.473032 1  200             Rx   d 12 5A EB 5C BE B3 E5 5C 3F 56 02 EA BE   Length = 0 BitCount = 0 ID = 512
   8.475625 1  200             Rx   d 12 B5 D7 93 BE 04 BF 5D 3F 12 CF D0 BE   Length = 0 BitCount = 0 ID = 512
   8.494911 1  200             Rx   d 12 7E F9 56 BF 75 AD F5 3E C1 1D 82 3E   Length = 0 BitCount = 0 ID = 512
   8.513622 1  200             Rx   d 12 5A EB 5C BE B3 E5 5C 3F 56 02 EA BE   Length = 0 BitCount = 0 ID = 512
   8.533018 1  200             Rx   d 12 5A EB 5C BE B3 E5 5C 3F 56 02 EA BE   Length = 0 BitCount = 0 ID = 512
   8.566866 1  200             Rx   d 12 76 EB 5C BE B3 E5 5C 3F 4D 02 EA BE   Length = 0 BitCount = 0 ID = 512
   8.570849 1  200             Rx   d 12 76 EB 5C BE B3 E5 5C 3F 4D 02 EA BE   Length = 0 BitCount = 0 ID = 512
   8.589587 1  200             Rx   d 12 5A EB 5C BE B3 E5 5C 3F 56 02 EA BE   Length = 0 BitCount = 0 ID = 512
   8.608639 1  200             Rx   d 12 5A EB 5C BE B3 E5 5C 3F 56 02 EA BE   Length = 0 BitCount = 0 ID = 512
   8.627625 1  200             Rx   d 12 36 09 51 BF 49 5A 0B 3F 58 CE 44 3E   Length = 0 BitCount = 0 ID = 512
   8.647094 1  200             Rx   d 12 5A EB 5C BE B3 E5 5C 3F 56 02 EA BE   Length = 0 BitCount = 0 ID = 512
   8.665660 1  200             Rx   d 12 5A EB 5C BE B3 E5 5C 3F 56 02 EA BE   Length = 0 BitCount = 0 ID = 512
   8.684812 1  200             Rx   d 12 36 09 51 BF 49 5A 0B 3F 58 CE 44 3E   Length = 0 BitCount = 0 ID = 512
   8.703571 1  200             Rx   d 12 23 5A DA BE C8 56 5A 3F 16 34 9A BE   Length = 0 BitCount = 0 ID = 512
   8.737850 1  200             Rx   d 12 5A EB 5C BE B3 E5 5C 3F 56 02 EA BE   Length = 0 BitCount = 0 ID = 512
   8.741848 1  200             Rx   d 12 38 09 51 BF 46 5A 0B 3F 6A CE 44 3E   Length = 0 BitCount = 0 ID = 512
   8.760673 1  200             Rx   d 12 38 09 51 BF 46 5A 0B 3F 6A CE 44 3E   Length = 0 BitCount = 0 ID = 512
   8.779804 1  200             Rx   d 12 5A EB 5C BE B3 E5 5C 3F 56 02 EA BE   Length = 0 BitCount = 0 ID = 512
   8.814507 1  200             Rx   d 12 12 5C 0B BF 6D 07 51 3F 74 D8 44 BE   Length = 0 BitCount = 0 ID = 512
   8.817682 1  200             Rx   d 12 23 5A DA BE C8 56 5A 3F 16 34 9A BE   Length = 0 BitCount = 0 ID = 512
   8.836936 1  200             Rx   d 12 5A EB 5C BE B3 E5 5C 3F 56 02 EA BE   Length = 0 BitCount = 0 ID = 512
   8.874590 1  200             Rx   d 12 5A EB 5C BE B3 E5 5C 3F 56 02 EA BE   Length = 0 BitCount = 0 ID = 512
   8.893963 1  200             Rx   d 12 6A B3 46 BF 75 F4 1E 3F EA 78 E0 3D   Length = 0 BitCount = 0 ID = 512
   8.913026 1  200             Rx   d 12 3A 5A DA BE C7 56 5A 3F 02 34 9A BE   Length = 0 BitCount = 0 ID = 512
   8.931800 1  200             Rx   d 12 5A EB 5C BE B3 E5 5C 3F 56 02 EA BE   Length = 0 BitCount = 0 ID = 512
   8.950622 1  200             Rx   d 12 5A EB 5C BE B3 E5 5C 3F 56 02 EA BE   Length = 0 BitCount = 0 ID = 512
   8.969747 1  200             Rx   d 12 23 5A DA BE C8 56 5A 3F 16 34 9A BE   Length = 0 BitCount = 0 ID = 512
   8.988970 1  200             Rx   d 12 69 B3 46 BF 77 F4 1E 3F D9 78 E0 3D   Length = 0 BitCount = 0 ID = 512
   9.008078 1  200             Rx   d 12 38 18 18 BF 89 C8 4A 3F 87 3A 0F BE   Length = 0 BitCount = 0 ID = 512
   9.046148 1  200             Rx   d 12 5A EB 5C BE B3 E5 5C 3F 56 02 EA BE   Length = 0 BitCount = 0 ID = 512
   9.064359 1  200             Rx   d 12 76 EB 5C BE B3 E5 5C 3F 4D 02 EA BE   Length = 0 BitCount = 0 ID = 512
   9.084236 1  200             Rx   d 12 E0 05 35 BF 07 04 35 3F FB FD A7 B7   Length = 0 BitCount = 0 ID = 512
   9.103202 1  200             Rx   d 12 69 B3 46 BF 77 F4 1E 3F D9 78 E0 3D   Length = 0 BitCount = 0 ID = 512
   9.121267 1  200             Rx   d 12 23 5A DA BE C8 56 5A 3F 16 34 9A BE   Length = 0 BitCount = 0 ID = 512
